
T37A8 001:522 SEGGER J-Link V6.46h Log File (0001ms, 1507ms total)
T37A8 001:522 DLL Compiled: Jun 28 2019 17:11:34 (0001ms, 1507ms total)
T37A8 001:522 Logging started @ 2019-10-10 18:09 (0001ms, 1507ms total)
T37A8 001:523 JLINK_SetWarnOutHandler(...) (0000ms, 1507ms total)
T37A8 001:523 JLINK_OpenEx(...)
Firmware: J-Link V9 compiled Dec  2 2016 15:35:20
Hardware: V9.40
S/N: 269400321
Feature(s): GDB, RDI, FlashBP, FlashDL, JFlash, RDDI
TELNET listener socket opened on port 19021WEBSRV 
Starting webserver (0532ms, 2039ms total)
T37A8 001:523 WEBSRV Webserver running on local port 19080 (0532ms, 2039ms total)
T37A8 001:523   returns O.K. (0532ms, 2039ms total)
T37A8 002:055 JLINK_SetErrorOutHandler(...) (0000ms, 2039ms total)
T37A8 002:055 JLINK_ExecCommand("ProjectFile = "G:\maichong\JLinkSettings.ini"", ...). Ref file found at: C:\Keil\ARM\Segger\JLinkDevices.ref (0003ms, 2042ms total)
T37A8 002:055 XML referenced by ref file: C:\Program Files (x86)\SEGGER\JLink_V646h\JLinkDevices.xml (0003ms, 2042ms total)
T37A8 002:055 C:\Program Files (x86)\SEGGER\JLink_V646h\JLinkDevices.xml evaluated successfully.  returns 0x00 (0110ms, 2149ms total)
T37A8 002:165 JLINK_ExecCommand("Device = STM32F103T8", ...). Device "STM32F103T8" selected.  returns 0x00 (0002ms, 2151ms total)
T37A8 002:167 JLINK_ExecCommand("DisableConnectionTimeout", ...).   returns 0x01 (0000ms, 2151ms total)
T37A8 002:167 JLINK_GetHardwareVersion()  returns 0x16F30 (0000ms, 2151ms total)
T37A8 002:167 JLINK_GetDLLVersion()  returns 64608 (0000ms, 2151ms total)
T37A8 002:167 JLINK_GetFirmwareString(...) (0000ms, 2151ms total)
T37A8 002:168 JLINK_GetDLLVersion()  returns 64608 (0000ms, 2151ms total)
T37A8 002:168 JLINK_GetCompileDateTime() (0000ms, 2151ms total)
T37A8 002:169 JLINK_GetFirmwareString(...) (0000ms, 2151ms total)
T37A8 002:169 JLINK_GetHardwareVersion()  returns 0x16F30 (0000ms, 2151ms total)
T37A8 002:169 JLINK_TIF_Select(JLINKARM_TIF_SWD)  returns 0x00 (0002ms, 2153ms total)
T37A8 002:171 JLINK_SetSpeed(2000) (0001ms, 2154ms total)
T37A8 002:172 JLINK_GetId() >0x10B TIF>Found SW-DP with ID 0x1BA01477 >0x0D TIF> >0x28 TIF> >0x0D TIF> >0x28 TIF> >0x0D TIF> >0x28 TIF> >0x0D TIF> >0x28 TIF> >0x0D TIF> >0x21 TIF> >0x0D TIF> >0x28 TIF> >0x0D TIF> >0x28 TIF> >0x0D TIF> >0x28 TIF> >0x0D TIF> >0x21 TIF> >0x0D TIF> >0x21 TIF> >0x0D TIF> >0x28 TIF> >0x0D TIF> >0x21 TIF> >0x0D TIF> >0x21 TIF> >0x0D TIF> >0x28 TIF> >0x0D TIF> >0x21 TIF> >0x0D TIF> >0x21 TIF> >0x0D TIF> >0x28 TIF> >0x0D TIF> >0x21 TIF> >0x0D TIF> >0x21 TIF> >0x0D TIF> >0x28 TIF>
 >0x0D TIF> >0x21 TIF> >0x0D TIF> >0x21 TIF> >0x0D TIF> >0x28 TIF> >0x0D TIF> >0x21 TIF> >0x0D TIF> >0x21 TIF> >0x0D TIF> >0x28 TIF> >0x0D TIF> >0x21 TIF> >0x0D TIF> >0x21 TIF> >0x10B TIF>Found SW-DP with ID 0x1BA01477 >0x0D TIF> >0x28 TIF> >0x0D TIF> >0x28 TIF> >0x0D TIF> >0x28 TIF> >0x0D TIF> >0x28 TIF> >0x0D TIF> >0x21 TIF> >0x0D TIF> >0x28 TIF>Scanning AP map to find all available APs >0x0D TIF> >0x28 TIF> >0x0D TIF> >0x21 TIF> >0x0D TIF> >0x21 TIF> >0x0D TIF> >0x28 TIF> >0x0D TIF> >0x21 TIF>
 >0x0D TIF> >0x21 TIF>AP[1]: Stopped AP scan as end of AP map has been reachedAP[0]: AHB-AP (IDR: 0x14770011)Iterating through AP map to find AHB-AP to use >0x42 TIF> >0x28 TIF> >0x0D TIF> >0x28 TIF> >0x0D TIF> >0x21 TIF> >0x0D TIF> >0x21 TIF> >0x42 TIF> >0x28 TIF> >0x0D TIF> >0x28 TIF> >0x0D TIF> >0x28 TIF> >0x0D TIF> >0x21 TIF> >0x0D TIF> >0x21 TIF>AP[0]: Core foundAP[0]: AHB-AP ROM base: 0xE00FF000 >0x0D TIF> >0x28 TIF> >0x0D TIF> >0x28 TIF> >0x0D TIF> >0x28 TIF> >0x0D TIF> >0x21 TIF> >0x0D TIF>
 >0x21 TIF>CPUID register: 0x411FC231. Implementer code: 0x41 (ARM)Found Cortex-M3 r1p1, Little endian. -- Max. mem block: 0x00011010 -- CPU_ReadMem(4 bytes @ 0xE000EDF0) -- CPU_WriteMem(4 bytes @ 0xE000EDF0) -- CPU_ReadMem(4 bytes @ 0xE0002000)FPUnit: 6 code (BP) slots and 2 literal slots -- CPU_ReadMem(4 bytes @ 0xE000EDFC) -- CPU_WriteMem(4 bytes @ 0xE000EDFC) -- CPU_ReadMem(4 bytes @ 0xE0001000) -- CPU_WriteMem(4 bytes @ 0xE0001000) -- CPU_ReadMem(4 bytes @ 0xE000ED88)
 -- CPU_WriteMem(4 bytes @ 0xE000ED88) -- CPU_ReadMem(4 bytes @ 0xE000ED88) -- CPU_WriteMem(4 bytes @ 0xE000ED88)CoreSight components:ROMTbl[0] @ E00FF000 -- CPU_ReadMem(16 bytes @ 0xE00FF000) -- CPU_ReadMem(16 bytes @ 0xE000EFF0) -- CPU_ReadMem(16 bytes @ 0xE000EFE0)ROMTbl[0][0]: E000E000, CID: B105E00D, PID: 001BB000 SCS -- CPU_ReadMem(16 bytes @ 0xE0001FF0) -- CPU_ReadMem(16 bytes @ 0xE0001FE0)ROMTbl[0][1]: E0001000, CID: B105E00D, PID: 001BB002 DWT -- CPU_ReadMem(16 bytes @ 0xE0002FF0)
 -- CPU_ReadMem(16 bytes @ 0xE0002FE0)ROMTbl[0][2]: E0002000, CID: B105E00D, PID: 000BB003 FPB -- CPU_ReadMem(16 bytes @ 0xE0000FF0) -- CPU_ReadMem(16 bytes @ 0xE0000FE0)ROMTbl[0][3]: E0000000, CID: B105E00D, PID: 001BB001 ITM -- CPU_ReadMem(16 bytes @ 0xE00FF010) -- CPU_ReadMem(16 bytes @ 0xE0040FF0) -- CPU_ReadMem(16 bytes @ 0xE0040FE0)ROMTbl[0][4]: E0040000, CID: B105900D, PID: 001BB923 TPIU-Lite -- CPU_ReadMem(16 bytes @ 0xE0041FF0) -- CPU_ReadMem(16 bytes @ 0xE0041FE0)
ROMTbl[0][5]: E0041000, CID: B105900D, PID: 101BB924 ETM-M3 >0x0D TIF> >0x21 TIF>  returns 0x1BA01477 (0177ms, 2331ms total)
T37A8 002:349 JLINK_GetDeviceFamily()  returns 3 (0000ms, 2331ms total)
T37A8 002:349 JLINK_ReadMem (0xE00FFFF0, 0x0010 Bytes, ...) -- CPU_ReadMem(16 bytes @ 0xE00FFFF0) - Data: 0D 00 00 00 10 00 00 00 05 00 00 00 B1 00 00 00  returns 0x00 (0001ms, 2332ms total)
T37A8 002:350 JLINK_ReadMem (0xE00FFFD0, 0x0020 Bytes, ...) -- CPU_ReadMem(32 bytes @ 0xE00FFFD0) - Data: 00 00 00 00 00 00 00 00 00 00 00 00 00 00 00 00 ...  returns 0x00 (0001ms, 2333ms total)
T37A8 002:351 JLINK_ReadMem (0xE00FF000, 0x0018 Bytes, ...) -- CPU_ReadMem(24 bytes @ 0xE00FF000) - Data: 03 F0 F0 FF 03 20 F0 FF 03 30 F0 FF 03 10 F0 FF ...  returns 0x00 (0001ms, 2334ms total)
T37A8 002:352 JLINK_ReadMemU32(0xE000ED00, 0x0001 Items, ...) -- CPU_ReadMem(4 bytes @ 0xE000ED00) - Data: 31 C2 1F 41  returns 1 (0000ms, 2334ms total)
T37A8 002:352 JLINK_SetResetType(JLINKARM_CM3_RESET_TYPE_NORMAL)  returns JLINKARM_CM3_RESET_TYPE_NORMAL (0000ms, 2334ms total)
T37A8 002:352 JLINK_Reset() -- CPU is running -- CPU_WriteMem(4 bytes @ 0xE000EDF0) -- CPU is running -- CPU_WriteMem(4 bytes @ 0xE000EDFC)Reset: Halt core after reset via DEMCR.VC_CORERESET. >0x35 TIF>Reset: Reset device via AIRCR.SYSRESETREQ. -- CPU is running -- CPU_WriteMem(4 bytes @ 0xE000ED0C) >0x0D TIF> >0x28 TIF> -- CPU_ReadMem(4 bytes @ 0xE000EDF0) -- CPU_ReadMem(4 bytes @ 0xE000EDF0) -- CPU is running -- CPU_WriteMem(4 bytes @ 0xE000EDF0) -- CPU is running -- CPU_WriteMem(4 bytes @ 0xE000EDFC)
 -- CPU_ReadMem(4 bytes @ 0xE000EDF0) -- CPU_WriteMem(4 bytes @ 0xE0002000) -- CPU_ReadMem(4 bytes @ 0xE000EDFC) -- CPU_ReadMem(4 bytes @ 0xE0001000) (0071ms, 2405ms total)
T37A8 002:423 JLINK_ReadReg(R15 (PC))  returns 0x08000100 (0000ms, 2405ms total)
T37A8 002:423 JLINK_ReadReg(XPSR)  returns 0x01000000 (0000ms, 2405ms total)
T37A8 002:423 JLINK_Halt()  returns 0x00 (0000ms, 2405ms total)
T37A8 002:423 JLINK_IsHalted()  returns TRUE (0000ms, 2405ms total)
T37A8 002:423 JLINK_ReadMemU32(0xE000EDF0, 0x0001 Items, ...) -- CPU_ReadMem(4 bytes @ 0xE000EDF0) - Data: 03 00 03 00  returns 1 (0001ms, 2406ms total)
T37A8 002:424 JLINK_WriteU32(0xE000EDF0, 0xA05F0003) -- CPU_WriteMem(4 bytes @ 0xE000EDF0)  returns 0 (0000ms, 2406ms total)
T37A8 002:424 JLINK_WriteU32(0xE000EDFC, 0x01000000) -- CPU_WriteMem(4 bytes @ 0xE000EDFC)  returns 0 (0001ms, 2407ms total)
T37A8 002:426 JLINK_GetHWStatus(...)  returns 0x00 (0000ms, 2407ms total)
T37A8 002:426 JLINK_GetNumBPUnits(Type = 0xFFFFFF00)  returns 0x06 (0000ms, 2407ms total)
T37A8 002:426 JLINK_GetNumBPUnits(Type = 0xF0)  returns 0x2000 (0000ms, 2407ms total)
T37A8 002:426 JLINK_GetNumWPUnits()  returns 0x04 (0000ms, 2407ms total)
T37A8 002:427 JLINK_GetSpeed()  returns 0x7D0 (0000ms, 2407ms total)
T37A8 002:427 JLINK_ReadMemU32(0xE000E004, 0x0001 Items, ...) -- CPU_ReadMem(4 bytes @ 0xE000E004) - Data: 01 00 00 00  returns 1 (0001ms, 2408ms total)
T37A8 002:428 JLINK_ReadMemU32(0xE000E004, 0x0001 Items, ...) -- CPU_ReadMem(4 bytes @ 0xE000E004) - Data: 01 00 00 00  returns 1 (0001ms, 2409ms total)
T37A8 002:429 JLINK_WriteMem(0xE0001000, 0x001C Bytes, ...) - Data: 01 00 00 00 00 00 00 00 00 00 00 00 00 00 00 00 ... -- CPU_WriteMem(28 bytes @ 0xE0001000)  returns 0x1C (0001ms, 2410ms total)
T37A8 002:430 JLINK_ReadMem (0xE0001000, 0x001C Bytes, ...) -- CPU_ReadMem(28 bytes @ 0xE0001000) - Data: 01 00 00 40 00 00 00 00 00 00 00 00 00 00 00 00 ...  returns 0x00 (0001ms, 2411ms total)
T37A8 002:431 JLINK_ReadReg(R15 (PC))  returns 0x08000100 (0000ms, 2411ms total)
T37A8 002:431 JLINK_ReadReg(XPSR)  returns 0x01000000 (0000ms, 2411ms total)
T37A8 002:505 JLINK_SetResetType(JLINKARM_CM3_RESET_TYPE_NORMAL)  returns JLINKARM_CM3_RESET_TYPE_NORMAL (0000ms, 2411ms total)
T37A8 002:505 JLINK_Reset() -- CPU_WriteMem(4 bytes @ 0xE000EDF0) -- CPU_WriteMem(4 bytes @ 0xE000EDFC)Reset: Halt core after reset via DEMCR.VC_CORERESET. >0x35 TIF>Reset: Reset device via AIRCR.SYSRESETREQ. -- CPU_WriteMem(4 bytes @ 0xE000ED0C) >0x0D TIF> >0x28 TIF> -- CPU_ReadMem(4 bytes @ 0xE000EDF0) -- CPU_ReadMem(4 bytes @ 0xE000EDF0) -- CPU_WriteMem(4 bytes @ 0xE000EDF0) -- CPU_WriteMem(4 bytes @ 0xE000EDFC) -- CPU_ReadMem(4 bytes @ 0xE000EDF0) -- CPU_WriteMem(4 bytes @ 0xE0002000)
 -- CPU_ReadMem(4 bytes @ 0xE000EDFC) -- CPU_ReadMem(4 bytes @ 0xE0001000) (0072ms, 2483ms total)
T37A8 002:578 JLINK_ReadReg(R15 (PC))  returns 0x08000100 (0000ms, 2484ms total)
T37A8 002:578 JLINK_ReadReg(XPSR)  returns 0x01000000 (0000ms, 2484ms total)
T37A8 002:579 JLINK_ReadMem (0x08000100, 0x003C Bytes, ...) -- CPU_ReadMem(64 bytes @ 0x08000100) -- Updating C cache (64 bytes @ 0x08000100) -- Read from C cache (60 bytes @ 0x08000100) - Data: 05 48 00 47 FE E7 FE E7 FE E7 FE E7 FE E7 FE E7 ...  returns 0x00 (0001ms, 2485ms total)
T37A8 002:709 JLINK_ReadMem (0x40000400, 0x002C Bytes, ...) -- CPU_ReadMem(44 bytes @ 0x40000400) - Data: 00 00 00 00 00 00 00 00 00 00 00 00 00 00 00 00 ...  returns 0x00 (0001ms, 2486ms total)
T37A8 002:710 JLINK_ReadMem (0x4000042C, 0x0004 Bytes, ...) -- CPU_ReadMem(4 bytes @ 0x4000042C) - Data: 00 00 00 00  returns 0x00 (0001ms, 2487ms total)
T37A8 002:711 JLINK_ReadMem (0x40000434, 0x000C Bytes, ...) -- CPU_ReadMem(12 bytes @ 0x40000434) - Data: 00 00 00 00 00 00 00 00 00 00 00 00  returns 0x00 (0000ms, 2487ms total)
T37A8 002:711 JLINK_ReadMem (0x40000440, 0x0004 Bytes, ...) -- CPU_ReadMem(4 bytes @ 0x40000440) - Data: 00 00 00 00  returns 0x00 (0001ms, 2488ms total)
T37A8 002:712 JLINK_ReadMem (0x40000448, 0x0004 Bytes, ...) -- CPU_ReadMem(4 bytes @ 0x40000448) - Data: 00 00 00 00  returns 0x00 (0001ms, 2489ms total)
T37A8 002:713 JLINK_ReadMem (0x4000044C, 0x0004 Bytes, ...) -- CPU_ReadMem(4 bytes @ 0x4000044C) - Data: 00 00 00 00  returns 0x00 (0000ms, 2489ms total)
T37A8 004:620 JLINK_ReadMem (0x20000030, 0x0004 Bytes, ...) -- CPU_ReadMem(64 bytes @ 0x20000000) -- Updating C cache (64 bytes @ 0x20000000) -- Read from C cache (4 bytes @ 0x20000030) - Data: 00 00 00 00  returns 0x00 (0001ms, 2490ms total)
T37A8 004:632 JLINK_ReadMem (0x2000005C, 0x0004 Bytes, ...) -- CPU_ReadMem(64 bytes @ 0x20000040) -- Updating C cache (64 bytes @ 0x20000040) -- Read from C cache (4 bytes @ 0x2000005C) - Data: 00 00 00 00  returns 0x00 (0001ms, 2491ms total)
T37A8 004:648 JLINK_ReadMem (0x20000034, 0x0004 Bytes, ...) -- Read from C cache (4 bytes @ 0x20000034) - Data: 00 00 00 00  returns 0x00 (0000ms, 2491ms total)
T1328 004:679 JLINK_SetBPEx(Addr = 0x08000EA2, Type = 0xFFFFFFF2)  returns 0x00000001 (0000ms, 2491ms total)
T1328 004:679 JLINK_Go() -- CPU_WriteMem(4 bytes @ 0xE0002000) -- CPU_ReadMem(4 bytes @ 0xE0001000) -- CPU_WriteMem(4 bytes @ 0xE0002008) -- CPU_WriteMem(4 bytes @ 0xE000200C) -- CPU_WriteMem(4 bytes @ 0xE0002010) -- CPU_WriteMem(4 bytes @ 0xE0002014) -- CPU_WriteMem(4 bytes @ 0xE0002018) -- CPU_WriteMem(4 bytes @ 0xE000201C) -- CPU_WriteMem(4 bytes @ 0xE0001004) (0006ms, 2497ms total)
T1328 004:786 JLINK_IsHalted()  returns TRUE (0004ms, 2501ms total)
T1328 004:790 JLINK_Halt()  returns 0x00 (0000ms, 2497ms total)
T1328 004:790 JLINK_IsHalted()  returns TRUE (0000ms, 2497ms total)
T1328 004:790 JLINK_IsHalted()  returns TRUE (0000ms, 2497ms total)
T1328 004:790 JLINK_IsHalted()  returns TRUE (0000ms, 2497ms total)
T1328 004:790 JLINK_ReadReg(R15 (PC))  returns 0x08000EA2 (0000ms, 2497ms total)
T1328 004:790 JLINK_ReadReg(XPSR)  returns 0x61000000 (0000ms, 2497ms total)
T1328 004:790 JLINK_ClrBPEx(BPHandle = 0x00000001)  returns 0x00 (0000ms, 2497ms total)
T1328 004:790 JLINK_ReadMemU32(0xE000ED30, 0x0001 Items, ...) -- CPU_ReadMem(4 bytes @ 0xE000ED30) - Data: 02 00 00 00  returns 1 (0001ms, 2498ms total)
T1328 004:791 JLINK_ReadMemU32(0xE0001028, 0x0001 Items, ...) -- CPU_ReadMem(4 bytes @ 0xE0001028) - Data: 00 00 00 00  returns 1 (0000ms, 2498ms total)
T1328 004:791 JLINK_ReadMemU32(0xE0001038, 0x0001 Items, ...) -- CPU_ReadMem(4 bytes @ 0xE0001038) - Data: 00 02 00 00  returns 1 (0001ms, 2499ms total)
T1328 004:792 JLINK_ReadMemU32(0xE0001048, 0x0001 Items, ...) -- CPU_ReadMem(4 bytes @ 0xE0001048) - Data: 00 00 00 00  returns 1 (0001ms, 2500ms total)
T1328 004:793 JLINK_ReadMemU32(0xE0001058, 0x0001 Items, ...) -- CPU_ReadMem(4 bytes @ 0xE0001058) - Data: 00 00 00 00  returns 1 (0000ms, 2500ms total)
T1328 004:793 JLINK_ReadReg(R0)  returns 0x08000EA3 (0000ms, 2500ms total)
T1328 004:793 JLINK_ReadReg(R1)  returns 0x20001410 (0000ms, 2500ms total)
T1328 004:793 JLINK_ReadReg(R2)  returns 0x00000000 (0000ms, 2500ms total)
T1328 004:793 JLINK_ReadReg(R3)  returns 0x08002E59 (0000ms, 2500ms total)
T1328 004:793 JLINK_ReadReg(R4)  returns 0x0800380C (0000ms, 2500ms total)
T1328 004:793 JLINK_ReadReg(R5)  returns 0x0800380C (0001ms, 2501ms total)
T1328 004:794 JLINK_ReadReg(R6)  returns 0x00000000 (0000ms, 2501ms total)
T1328 004:794 JLINK_ReadReg(R7)  returns 0x00000000 (0000ms, 2501ms total)
T1328 004:794 JLINK_ReadReg(R8)  returns 0x00000000 (0000ms, 2501ms total)
T1328 004:794 JLINK_ReadReg(R9)  returns 0x20000160 (0000ms, 2501ms total)
T1328 004:794 JLINK_ReadReg(R10)  returns 0x00000000 (0000ms, 2501ms total)
T1328 004:794 JLINK_ReadReg(R11)  returns 0x00000000 (0000ms, 2501ms total)
T1328 004:794 JLINK_ReadReg(R12)  returns 0x00000001 (0000ms, 2501ms total)
T1328 004:794 JLINK_ReadReg(R13 (SP))  returns 0x20001410 (0000ms, 2501ms total)
T1328 004:794 JLINK_ReadReg(R14)  returns 0x08002111 (0000ms, 2501ms total)
T1328 004:794 JLINK_ReadReg(R15 (PC))  returns 0x08000EA2 (0000ms, 2501ms total)
T1328 004:794 JLINK_ReadReg(XPSR)  returns 0x61000000 (0000ms, 2501ms total)
T1328 004:794 JLINK_ReadReg(MSP)  returns 0x20001410 (0000ms, 2501ms total)
T1328 004:794 JLINK_ReadReg(PSP)  returns 0x20000800 (0000ms, 2501ms total)
T1328 004:794 JLINK_ReadReg(CFBP)  returns 0x00000000 (0000ms, 2501ms total)
T37A8 004:795 JLINK_ReadMem (0x20000030, 0x0004 Bytes, ...) -- CPU_ReadMem(64 bytes @ 0x20000000) -- Updating C cache (64 bytes @ 0x20000000) -- Read from C cache (4 bytes @ 0x20000030) - Data: 00 00 00 00  returns 0x00 (0002ms, 2503ms total)
T37A8 004:797 JLINK_ReadMem (0x2000005C, 0x0004 Bytes, ...) -- CPU_ReadMem(64 bytes @ 0x20000040) -- Updating C cache (64 bytes @ 0x20000040) -- Read from C cache (4 bytes @ 0x2000005C) - Data: 00 00 00 00  returns 0x00 (0001ms, 2504ms total)
T37A8 004:800 JLINK_ReadMem (0x20000034, 0x0004 Bytes, ...) -- Read from C cache (4 bytes @ 0x20000034) - Data: 00 00 00 00  returns 0x00 (0000ms, 2504ms total)
T37A8 004:800 JLINK_ReadMem (0x40000400, 0x002C Bytes, ...) -- CPU_ReadMem(44 bytes @ 0x40000400) - Data: 00 00 00 00 00 00 00 00 00 00 00 00 00 00 00 00 ...  returns 0x00 (0001ms, 2505ms total)
T37A8 004:801 JLINK_ReadMem (0x4000042C, 0x0004 Bytes, ...) -- CPU_ReadMem(4 bytes @ 0x4000042C) - Data: 00 00 00 00  returns 0x00 (0000ms, 2505ms total)
T37A8 004:801 JLINK_ReadMem (0x40000434, 0x000C Bytes, ...) -- CPU_ReadMem(12 bytes @ 0x40000434) - Data: 00 00 00 00 00 00 00 00 00 00 00 00  returns 0x00 (0001ms, 2506ms total)
T37A8 004:802 JLINK_ReadMem (0x40000440, 0x0004 Bytes, ...) -- CPU_ReadMem(4 bytes @ 0x40000440) - Data: 00 00 00 00  returns 0x00 (0001ms, 2507ms total)
T37A8 004:803 JLINK_ReadMem (0x40000448, 0x0004 Bytes, ...) -- CPU_ReadMem(4 bytes @ 0x40000448) - Data: 00 00 00 00  returns 0x00 (0000ms, 2507ms total)
T37A8 004:803 JLINK_ReadMem (0x4000044C, 0x0004 Bytes, ...) -- CPU_ReadMem(4 bytes @ 0x4000044C) - Data: 00 00 00 00  returns 0x00 (0001ms, 2508ms total)
T37A8 004:806 JLINK_ReadMem (0x08000EA2, 0x0002 Bytes, ...) -- CPU_ReadMem(64 bytes @ 0x08000E80) -- Updating C cache (64 bytes @ 0x08000E80) -- Read from C cache (2 bytes @ 0x08000EA2) - Data: FF F7  returns 0x00 (0001ms, 2509ms total)
T37A8 004:807 JLINK_ReadMem (0x08000EA4, 0x003C Bytes, ...) -- CPU_ReadMem(64 bytes @ 0x08000EC0) -- Updating C cache (64 bytes @ 0x08000EC0) -- Read from C cache (60 bytes @ 0x08000EA4) - Data: 3B F9 FF F7 64 F9 FF F7 75 FA FF F7 D4 F9 00 21 ...  returns 0x00 (0002ms, 2511ms total)
T1328 005:829 JLINK_Go() -- CPU_ReadMem(4 bytes @ 0xE0001000) -- CPU_WriteMem(4 bytes @ 0xE0002008) (0003ms, 2514ms total)
T1328 005:933 JLINK_IsHalted()  returns FALSE (0000ms, 2514ms total)
T1328 006:034 JLINK_IsHalted()  returns FALSE (0000ms, 2514ms total)
T1328 006:135 JLINK_IsHalted()  returns FALSE (0000ms, 2514ms total)
T1328 006:237 JLINK_IsHalted()  returns FALSE (0000ms, 2514ms total)
T1328 006:338 JLINK_IsHalted()  returns FALSE (0000ms, 2514ms total)
T1328 006:439 JLINK_ReadMemU32(0xE0001004, 0x0001 Items, ...) -- CPU_ReadMem(4 bytes @ 0xE0001004) - Data: 50 FE 4E 01  returns 1 (0000ms, 2514ms total)
T37A8 006:440 JLINK_ReadMem (0x20000030, 0x0004 Bytes, ...) -- CPU_ReadMem(4 bytes @ 0x20000030) - Data: 00 00 00 00  returns 0x00 (0000ms, 2514ms total)
T37A8 006:440 JLINK_ReadMem (0x2000005C, 0x0004 Bytes, ...) -- CPU_ReadMem(4 bytes @ 0x2000005C) - Data: 00 00 00 00  returns 0x00 (0001ms, 2515ms total)
T37A8 006:443 JLINK_ReadMem (0x20000034, 0x0004 Bytes, ...) -- CPU_ReadMem(4 bytes @ 0x20000034) - Data: 00 00 00 00  returns 0x00 (0001ms, 2516ms total)
T37A8 006:444 JLINK_ReadMem (0x40000400, 0x002C Bytes, ...) -- CPU_ReadMem(44 bytes @ 0x40000400) - Data: 81 00 00 00 00 00 00 00 00 00 00 00 00 00 00 00 ...  returns 0x00 (0001ms, 2517ms total)
T37A8 006:445 JLINK_ReadMem (0x4000042C, 0x0004 Bytes, ...) -- CPU_ReadMem(4 bytes @ 0x4000042C) - Data: E7 03 00 00  returns 0x00 (0000ms, 2517ms total)
T37A8 006:445 JLINK_ReadMem (0x40000434, 0x000C Bytes, ...) -- CPU_ReadMem(12 bytes @ 0x40000434) - Data: 00 00 00 00 00 00 00 00 00 00 00 00  returns 0x00 (0001ms, 2518ms total)
T37A8 006:446 JLINK_ReadMem (0x40000440, 0x0004 Bytes, ...) -- CPU_ReadMem(4 bytes @ 0x40000440) - Data: 00 00 00 00  returns 0x00 (0000ms, 2518ms total)
T37A8 006:446 JLINK_ReadMem (0x40000448, 0x0004 Bytes, ...) -- CPU_ReadMem(4 bytes @ 0x40000448) - Data: 00 00 00 00  returns 0x00 (0001ms, 2519ms total)
T37A8 006:447 JLINK_ReadMem (0x4000044C, 0x0004 Bytes, ...) -- CPU_ReadMem(4 bytes @ 0x4000044C) - Data: 81 00 00 00  returns 0x00 (0001ms, 2520ms total)
T37A8 006:448 JLINK_ReadMem (0x40000400, 0x0004 Bytes, ...) -- CPU_ReadMem(4 bytes @ 0x40000400) - Data: 81 00 00 00  returns 0x00 (0000ms, 2520ms total)
T37A8 006:448 JLINK_ReadMem (0x40000400, 0x0004 Bytes, ...) -- CPU_ReadMem(4 bytes @ 0x40000400) - Data: 81 00 00 00  returns 0x00 (0001ms, 2521ms total)
T37A8 006:449 JLINK_ReadMem (0x40000400, 0x0004 Bytes, ...) -- CPU_ReadMem(4 bytes @ 0x40000400) - Data: 81 00 00 00  returns 0x00 (0001ms, 2522ms total)
T37A8 006:450 JLINK_ReadMem (0x40000400, 0x0004 Bytes, ...) -- CPU_ReadMem(4 bytes @ 0x40000400) - Data: 81 00 00 00  returns 0x00 (0000ms, 2522ms total)
T37A8 006:450 JLINK_ReadMem (0x40000400, 0x0004 Bytes, ...) -- CPU_ReadMem(4 bytes @ 0x40000400) - Data: 81 00 00 00  returns 0x00 (0001ms, 2523ms total)
T37A8 006:451 JLINK_ReadMem (0x40000400, 0x0004 Bytes, ...) -- CPU_ReadMem(4 bytes @ 0x40000400) - Data: 81 00 00 00  returns 0x00 (0001ms, 2524ms total)
T37A8 006:452 JLINK_ReadMem (0x40000400, 0x0004 Bytes, ...) -- CPU_ReadMem(4 bytes @ 0x40000400) - Data: 81 00 00 00  returns 0x00 (0000ms, 2524ms total)
T37A8 006:453 JLINK_ReadMem (0x40000400, 0x0004 Bytes, ...) -- CPU_ReadMem(4 bytes @ 0x40000400) - Data: 81 00 00 00  returns 0x00 (0000ms, 2525ms total)
T37A8 006:453 JLINK_ReadMem (0x40000400, 0x0004 Bytes, ...) -- CPU_ReadMem(4 bytes @ 0x40000400) - Data: 81 00 00 00  returns 0x00 (0001ms, 2526ms total)
T37A8 006:459 JLINK_ReadMem (0x40000410, 0x0004 Bytes, ...) -- CPU_ReadMem(4 bytes @ 0x40000410) - Data: 1F 00 00 00  returns 0x00 (0001ms, 2527ms total)
T37A8 006:460 JLINK_ReadMem (0x40000410, 0x0004 Bytes, ...) -- CPU_ReadMem(4 bytes @ 0x40000410) - Data: 1F 00 00 00  returns 0x00 (0001ms, 2528ms total)
T37A8 006:461 JLINK_ReadMem (0x40000410, 0x0004 Bytes, ...) -- CPU_ReadMem(4 bytes @ 0x40000410) - Data: 1F 00 00 00  returns 0x00 (0001ms, 2529ms total)
T37A8 006:462 JLINK_ReadMem (0x40000410, 0x0004 Bytes, ...) -- CPU_ReadMem(4 bytes @ 0x40000410) - Data: 1F 00 00 00  returns 0x00 (0000ms, 2529ms total)
T37A8 006:463 JLINK_ReadMem (0x40000410, 0x0004 Bytes, ...) -- CPU_ReadMem(4 bytes @ 0x40000410) - Data: 1F 00 00 00  returns 0x00 (0000ms, 2530ms total)
T37A8 006:463 JLINK_ReadMem (0x40000410, 0x0004 Bytes, ...) -- CPU_ReadMem(4 bytes @ 0x40000410) - Data: 1F 00 00 00  returns 0x00 (0001ms, 2531ms total)
T37A8 006:464 JLINK_ReadMem (0x40000410, 0x0004 Bytes, ...) -- CPU_ReadMem(4 bytes @ 0x40000410) - Data: 1F 00 00 00  returns 0x00 (0001ms, 2532ms total)
T37A8 006:465 JLINK_ReadMem (0x40000410, 0x0004 Bytes, ...) -- CPU_ReadMem(4 bytes @ 0x40000410) - Data: 1F 00 00 00  returns 0x00 (0000ms, 2532ms total)
T37A8 006:465 JLINK_ReadMem (0x40000410, 0x0004 Bytes, ...) -- CPU_ReadMem(4 bytes @ 0x40000410) - Data: 1F 00 00 00  returns 0x00 (0001ms, 2533ms total)
T37A8 006:466 JLINK_ReadMem (0x40000410, 0x0004 Bytes, ...) -- CPU_ReadMem(4 bytes @ 0x40000410) - Data: 1F 00 00 00  returns 0x00 (0001ms, 2534ms total)
T37A8 006:467 JLINK_ReadMem (0x40000410, 0x0004 Bytes, ...) -- CPU_ReadMem(4 bytes @ 0x40000410) - Data: 1F 00 00 00  returns 0x00 (0000ms, 2534ms total)
T37A8 006:473 JLINK_ReadMem (0x4000041C, 0x0004 Bytes, ...) -- CPU_ReadMem(4 bytes @ 0x4000041C) - Data: 68 00 00 00  returns 0x00 (0001ms, 2535ms total)
T37A8 006:474 JLINK_ReadMem (0x4000041C, 0x0004 Bytes, ...) -- CPU_ReadMem(4 bytes @ 0x4000041C) - Data: 68 00 00 00  returns 0x00 (0000ms, 2535ms total)
T37A8 006:474 JLINK_ReadMem (0x4000041C, 0x0004 Bytes, ...) -- CPU_ReadMem(4 bytes @ 0x4000041C) - Data: 68 00 00 00  returns 0x00 (0001ms, 2536ms total)
T37A8 006:475 JLINK_ReadMem (0x4000041C, 0x0004 Bytes, ...) -- CPU_ReadMem(4 bytes @ 0x4000041C) - Data: 68 00 00 00  returns 0x00 (0001ms, 2537ms total)
T37A8 006:476 JLINK_ReadMem (0x4000041C, 0x0004 Bytes, ...) -- CPU_ReadMem(4 bytes @ 0x4000041C) - Data: 68 00 00 00  returns 0x00 (0001ms, 2538ms total)
T37A8 006:477 JLINK_ReadMem (0x4000041C, 0x0004 Bytes, ...) -- CPU_ReadMem(4 bytes @ 0x4000041C) - Data: 68 00 00 00  returns 0x00 (0001ms, 2539ms total)
T37A8 006:478 JLINK_ReadMem (0x4000041C, 0x0004 Bytes, ...) -- CPU_ReadMem(4 bytes @ 0x4000041C) - Data: 68 00 00 00  returns 0x00 (0000ms, 2539ms total)
T37A8 006:478 JLINK_ReadMem (0x4000041C, 0x0004 Bytes, ...) -- CPU_ReadMem(4 bytes @ 0x4000041C) - Data: 68 00 00 00  returns 0x00 (0001ms, 2540ms total)
T37A8 006:479 JLINK_ReadMem (0x4000041C, 0x0004 Bytes, ...) -- CPU_ReadMem(4 bytes @ 0x4000041C) - Data: 68 00 00 00  returns 0x00 (0001ms, 2541ms total)
T37A8 006:480 JLINK_ReadMem (0x4000041C, 0x0004 Bytes, ...) -- CPU_ReadMem(4 bytes @ 0x4000041C) - Data: 68 00 00 00  returns 0x00 (0000ms, 2541ms total)
T37A8 006:480 JLINK_ReadMem (0x4000041C, 0x0004 Bytes, ...) -- CPU_ReadMem(4 bytes @ 0x4000041C) - Data: 68 00 00 00  returns 0x00 (0001ms, 2542ms total)
T37A8 006:485 JLINK_ReadMem (0x4000041C, 0x0004 Bytes, ...) -- CPU_ReadMem(4 bytes @ 0x4000041C) - Data: 68 00 00 00  returns 0x00 (0001ms, 2543ms total)
T37A8 006:486 JLINK_ReadMem (0x4000041C, 0x0004 Bytes, ...) -- CPU_ReadMem(4 bytes @ 0x4000041C) - Data: 68 00 00 00  returns 0x00 (0001ms, 2544ms total)
T37A8 006:487 JLINK_ReadMem (0x4000041C, 0x0004 Bytes, ...) -- CPU_ReadMem(4 bytes @ 0x4000041C) - Data: 68 00 00 00  returns 0x00 (0001ms, 2545ms total)
T37A8 006:488 JLINK_ReadMem (0x4000041C, 0x0004 Bytes, ...) -- CPU_ReadMem(4 bytes @ 0x4000041C) - Data: 68 00 00 00  returns 0x00 (0001ms, 2546ms total)
T37A8 006:489 JLINK_ReadMem (0x4000041C, 0x0004 Bytes, ...) -- CPU_ReadMem(4 bytes @ 0x4000041C) - Data: 68 00 00 00  returns 0x00 (0000ms, 2546ms total)
T37A8 006:489 JLINK_ReadMem (0x4000041C, 0x0004 Bytes, ...) -- CPU_ReadMem(4 bytes @ 0x4000041C) - Data: 68 00 00 00  returns 0x00 (0001ms, 2547ms total)
T37A8 006:490 JLINK_ReadMem (0x4000041C, 0x0004 Bytes, ...) -- CPU_ReadMem(4 bytes @ 0x4000041C) - Data: 68 00 00 00  returns 0x00 (0001ms, 2548ms total)
T37A8 006:495 JLINK_ReadMem (0x40000420, 0x0004 Bytes, ...) -- CPU_ReadMem(4 bytes @ 0x40000420) - Data: 00 01 00 00  returns 0x00 (0001ms, 2549ms total)
T37A8 006:496 JLINK_ReadMem (0x40000420, 0x0004 Bytes, ...) -- CPU_ReadMem(4 bytes @ 0x40000420) - Data: 00 01 00 00  returns 0x00 (0001ms, 2550ms total)
T37A8 006:497 JLINK_ReadMem (0x40000420, 0x0004 Bytes, ...) -- CPU_ReadMem(4 bytes @ 0x40000420) - Data: 00 01 00 00  returns 0x00 (0001ms, 2551ms total)
T37A8 006:498 JLINK_ReadMem (0x40000420, 0x0004 Bytes, ...) -- CPU_ReadMem(4 bytes @ 0x40000420) - Data: 00 01 00 00  returns 0x00 (0000ms, 2551ms total)
T37A8 006:498 JLINK_ReadMem (0x40000420, 0x0004 Bytes, ...) -- CPU_ReadMem(4 bytes @ 0x40000420) - Data: 00 01 00 00  returns 0x00 (0001ms, 2552ms total)
T37A8 006:499 JLINK_ReadMem (0x40000420, 0x0004 Bytes, ...) -- CPU_ReadMem(4 bytes @ 0x40000420) - Data: 00 01 00 00  returns 0x00 (0001ms, 2553ms total)
T37A8 006:500 JLINK_ReadMem (0x40000420, 0x0004 Bytes, ...) -- CPU_ReadMem(4 bytes @ 0x40000420) - Data: 00 01 00 00  returns 0x00 (0001ms, 2554ms total)
T37A8 006:501 JLINK_ReadMem (0x40000420, 0x0004 Bytes, ...) -- CPU_ReadMem(4 bytes @ 0x40000420) - Data: 00 01 00 00  returns 0x00 (0001ms, 2555ms total)
T37A8 006:502 JLINK_ReadMem (0x40000420, 0x0004 Bytes, ...) -- CPU_ReadMem(4 bytes @ 0x40000420) - Data: 00 01 00 00  returns 0x00 (0000ms, 2555ms total)
T37A8 006:506 JLINK_ReadMem (0x40000424, 0x0004 Bytes, ...) -- CPU_ReadMem(4 bytes @ 0x40000424) - Data: 67 02 00 00  returns 0x00 (0001ms, 2556ms total)
T37A8 006:507 JLINK_ReadMem (0x40000424, 0x0004 Bytes, ...) -- CPU_ReadMem(4 bytes @ 0x40000424) - Data: 93 03 00 00  returns 0x00 (0001ms, 2557ms total)
T37A8 006:513 JLINK_ReadMem (0x4000042C, 0x0004 Bytes, ...) -- CPU_ReadMem(4 bytes @ 0x4000042C) - Data: E7 03 00 00  returns 0x00 (0000ms, 2557ms total)
T37A8 006:513 JLINK_ReadMem (0x4000042C, 0x0004 Bytes, ...) -- CPU_ReadMem(4 bytes @ 0x4000042C) - Data: E7 03 00 00  returns 0x00 (0001ms, 2558ms total)
T37A8 006:519 JLINK_ReadMem (0x4000044C, 0x0004 Bytes, ...) -- CPU_ReadMem(4 bytes @ 0x4000044C) - Data: 81 00 00 00  returns 0x00 (0001ms, 2559ms total)
T37A8 006:520 JLINK_ReadMem (0x4000044C, 0x0004 Bytes, ...) -- CPU_ReadMem(4 bytes @ 0x4000044C) - Data: 81 00 00 00  returns 0x00 (0001ms, 2560ms total)
T1328 006:525 JLINK_IsHalted()  returns FALSE (0001ms, 2561ms total)
T1328 006:627 JLINK_IsHalted()  returns FALSE (0000ms, 2560ms total)
T1328 006:729 JLINK_IsHalted()  returns FALSE (0000ms, 2560ms total)
T1328 006:830 JLINK_IsHalted()  returns FALSE (0001ms, 2561ms total)
T1328 006:932 JLINK_IsHalted()  returns FALSE (0001ms, 2561ms total)
T1328 007:034 JLINK_ReadMemU32(0xE0001004, 0x0001 Items, ...) - Data: 50 FE 4E 01  returns 1 (0000ms, 2560ms total)
T37A8 007:034 JLINK_ReadMem (0x20000030, 0x0004 Bytes, ...) -- CPU_ReadMem(4 bytes @ 0x20000030) - Data: 00 00 00 00  returns 0x00 (0001ms, 2561ms total)
T37A8 007:035 JLINK_ReadMem (0x2000005C, 0x0004 Bytes, ...) -- CPU_ReadMem(4 bytes @ 0x2000005C) - Data: 00 00 00 00  returns 0x00 (0000ms, 2561ms total)
T37A8 007:036 JLINK_ReadMem (0x20000034, 0x0004 Bytes, ...) -- CPU_ReadMem(4 bytes @ 0x20000034) - Data: 00 00 00 00  returns 0x00 (0001ms, 2562ms total)
T37A8 007:037 JLINK_ReadMem (0x40000400, 0x002C Bytes, ...) -- CPU_ReadMem(44 bytes @ 0x40000400) - Data: 81 00 00 00 00 00 00 00 00 00 00 00 00 00 00 00 ...  returns 0x00 (0001ms, 2563ms total)
T37A8 007:038 JLINK_ReadMem (0x4000042C, 0x0004 Bytes, ...) -- CPU_ReadMem(4 bytes @ 0x4000042C) - Data: E7 03 00 00  returns 0x00 (0000ms, 2563ms total)
T37A8 007:038 JLINK_ReadMem (0x40000434, 0x000C Bytes, ...) -- CPU_ReadMem(12 bytes @ 0x40000434) - Data: 00 00 00 00 00 00 00 00 00 00 00 00  returns 0x00 (0001ms, 2564ms total)
T37A8 007:039 JLINK_ReadMem (0x40000440, 0x0004 Bytes, ...) -- CPU_ReadMem(4 bytes @ 0x40000440) - Data: 00 00 00 00  returns 0x00 (0001ms, 2565ms total)
T37A8 007:040 JLINK_ReadMem (0x40000448, 0x0004 Bytes, ...) -- CPU_ReadMem(4 bytes @ 0x40000448) - Data: 00 00 00 00  returns 0x00 (0000ms, 2565ms total)
T37A8 007:040 JLINK_ReadMem (0x4000044C, 0x0004 Bytes, ...) -- CPU_ReadMem(4 bytes @ 0x4000044C) - Data: 81 00 00 00  returns 0x00 (0001ms, 2566ms total)
T37A8 007:041 JLINK_ReadMem (0x40000424, 0x0004 Bytes, ...) -- CPU_ReadMem(4 bytes @ 0x40000424) - Data: CD 03 00 00  returns 0x00 (0001ms, 2567ms total)
T37A8 007:042 JLINK_ReadMem (0x40000424, 0x0004 Bytes, ...) -- CPU_ReadMem(4 bytes @ 0x40000424) - Data: EF 00 00 00  returns 0x00 (0000ms, 2567ms total)
T1328 007:049 JLINK_IsHalted()  returns FALSE (0001ms, 2568ms total)
T1328 007:151 JLINK_IsHalted()  returns FALSE (0001ms, 2568ms total)
T1328 007:253 JLINK_IsHalted()  returns FALSE (0000ms, 2567ms total)
T1328 007:354 JLINK_IsHalted()  returns FALSE (0000ms, 2567ms total)
T1328 007:456 JLINK_IsHalted()  returns FALSE (0000ms, 2567ms total)
T1328 007:557 JLINK_ReadMemU32(0xE0001004, 0x0001 Items, ...) - Data: 50 FE 4E 01  returns 1 (0000ms, 2567ms total)
T37A8 007:557 JLINK_ReadMem (0x20000030, 0x0004 Bytes, ...) -- CPU_ReadMem(4 bytes @ 0x20000030) - Data: 00 00 00 00  returns 0x00 (0000ms, 2567ms total)
T37A8 007:557 JLINK_ReadMem (0x2000005C, 0x0004 Bytes, ...) -- CPU_ReadMem(4 bytes @ 0x2000005C) - Data: 00 00 00 00  returns 0x00 (0001ms, 2568ms total)
T37A8 007:559 JLINK_ReadMem (0x20000034, 0x0004 Bytes, ...) -- CPU_ReadMem(4 bytes @ 0x20000034) - Data: 00 00 00 00  returns 0x00 (0000ms, 2568ms total)
T37A8 007:559 JLINK_ReadMem (0x40000400, 0x002C Bytes, ...) -- CPU_ReadMem(44 bytes @ 0x40000400) - Data: 81 00 00 00 00 00 00 00 00 00 00 00 00 00 00 00 ...  returns 0x00 (0001ms, 2569ms total)
T37A8 007:560 JLINK_ReadMem (0x4000042C, 0x0004 Bytes, ...) -- CPU_ReadMem(4 bytes @ 0x4000042C) - Data: E7 03 00 00  returns 0x00 (0001ms, 2570ms total)
T37A8 007:561 JLINK_ReadMem (0x40000434, 0x000C Bytes, ...) -- CPU_ReadMem(12 bytes @ 0x40000434) - Data: 00 00 00 00 00 00 00 00 00 00 00 00  returns 0x00 (0001ms, 2571ms total)
T37A8 007:562 JLINK_ReadMem (0x40000440, 0x0004 Bytes, ...) -- CPU_ReadMem(4 bytes @ 0x40000440) - Data: 00 00 00 00  returns 0x00 (0001ms, 2572ms total)
T37A8 007:563 JLINK_ReadMem (0x40000448, 0x0004 Bytes, ...) -- CPU_ReadMem(4 bytes @ 0x40000448) - Data: 00 00 00 00  returns 0x00 (0000ms, 2572ms total)
T37A8 007:563 JLINK_ReadMem (0x4000044C, 0x0004 Bytes, ...) -- CPU_ReadMem(4 bytes @ 0x4000044C) - Data: 81 00 00 00  returns 0x00 (0001ms, 2573ms total)
T37A8 007:564 JLINK_ReadMem (0x40000424, 0x0004 Bytes, ...) -- CPU_ReadMem(4 bytes @ 0x40000424) - Data: E5 02 00 00  returns 0x00 (0001ms, 2574ms total)
T37A8 007:565 JLINK_ReadMem (0x40000424, 0x0004 Bytes, ...) -- CPU_ReadMem(4 bytes @ 0x40000424) - Data: 1D 02 00 00  returns 0x00 (0001ms, 2575ms total)
T1328 007:571 JLINK_IsHalted()  returns FALSE (0001ms, 2576ms total)
T1328 007:673 JLINK_IsHalted()  returns FALSE (0000ms, 2575ms total)
T1328 007:774 JLINK_IsHalted()  returns FALSE (0000ms, 2575ms total)
T1328 007:875 JLINK_IsHalted()  returns FALSE (0000ms, 2575ms total)
T1328 007:976 JLINK_IsHalted()  returns FALSE (0000ms, 2575ms total)
T1328 008:077 JLINK_ReadMemU32(0xE0001004, 0x0001 Items, ...) - Data: 50 FE 4E 01  returns 1 (0000ms, 2575ms total)
T37A8 008:078 JLINK_ReadMem (0x20000030, 0x0004 Bytes, ...) -- CPU_ReadMem(4 bytes @ 0x20000030) - Data: 00 00 00 00  returns 0x00 (0001ms, 2576ms total)
T37A8 008:079 JLINK_ReadMem (0x2000005C, 0x0004 Bytes, ...) -- CPU_ReadMem(4 bytes @ 0x2000005C) - Data: 00 00 00 00  returns 0x00 (0000ms, 2576ms total)
T37A8 008:080 JLINK_ReadMem (0x20000034, 0x0004 Bytes, ...) -- CPU_ReadMem(4 bytes @ 0x20000034) - Data: 00 00 00 00  returns 0x00 (0001ms, 2577ms total)
T37A8 008:081 JLINK_ReadMem (0x40000400, 0x002C Bytes, ...) -- CPU_ReadMem(44 bytes @ 0x40000400) - Data: 81 00 00 00 00 00 00 00 00 00 00 00 00 00 00 00 ...  returns 0x00 (0001ms, 2578ms total)
T37A8 008:082 JLINK_ReadMem (0x4000042C, 0x0004 Bytes, ...) -- CPU_ReadMem(4 bytes @ 0x4000042C) - Data: E7 03 00 00  returns 0x00 (0001ms, 2579ms total)
T37A8 008:083 JLINK_ReadMem (0x40000434, 0x000C Bytes, ...) -- CPU_ReadMem(12 bytes @ 0x40000434) - Data: 00 00 00 00 00 00 00 00 00 00 00 00  returns 0x00 (0000ms, 2579ms total)
T37A8 008:083 JLINK_ReadMem (0x40000440, 0x0004 Bytes, ...) -- CPU_ReadMem(4 bytes @ 0x40000440) - Data: 00 00 00 00  returns 0x00 (0001ms, 2580ms total)
T37A8 008:084 JLINK_ReadMem (0x40000448, 0x0004 Bytes, ...) -- CPU_ReadMem(4 bytes @ 0x40000448) - Data: 00 00 00 00  returns 0x00 (0001ms, 2581ms total)
T37A8 008:085 JLINK_ReadMem (0x4000044C, 0x0004 Bytes, ...) -- CPU_ReadMem(4 bytes @ 0x4000044C) - Data: 81 00 00 00  returns 0x00 (0000ms, 2581ms total)
T37A8 008:085 JLINK_ReadMem (0x40000424, 0x0004 Bytes, ...) -- CPU_ReadMem(4 bytes @ 0x40000424) - Data: D1 01 00 00  returns 0x00 (0001ms, 2582ms total)
T37A8 008:086 JLINK_ReadMem (0x40000424, 0x0004 Bytes, ...) -- CPU_ReadMem(4 bytes @ 0x40000424) - Data: 51 01 00 00  returns 0x00 (0001ms, 2583ms total)
T1328 008:092 JLINK_IsHalted()  returns FALSE (0000ms, 2583ms total)
T1328 008:193 JLINK_IsHalted()  returns FALSE (0000ms, 2583ms total)
T1328 008:294 JLINK_IsHalted()  returns FALSE (0000ms, 2583ms total)
T1328 008:395 JLINK_IsHalted()  returns FALSE (0000ms, 2583ms total)
T1328 008:496 JLINK_IsHalted()  returns FALSE (0000ms, 2583ms total)
T1328 008:597 JLINK_ReadMemU32(0xE0001004, 0x0001 Items, ...) - Data: 50 FE 4E 01  returns 1 (0000ms, 2583ms total)
T37A8 008:597 JLINK_ReadMem (0x20000030, 0x0004 Bytes, ...) -- CPU_ReadMem(4 bytes @ 0x20000030) - Data: 00 00 00 00  returns 0x00 (0000ms, 2583ms total)
T37A8 008:597 JLINK_ReadMem (0x2000005C, 0x0004 Bytes, ...) -- CPU_ReadMem(4 bytes @ 0x2000005C) - Data: 00 00 00 00  returns 0x00 (0001ms, 2584ms total)
T37A8 008:599 JLINK_ReadMem (0x20000034, 0x0004 Bytes, ...) -- CPU_ReadMem(4 bytes @ 0x20000034) - Data: 00 00 00 00  returns 0x00 (0000ms, 2584ms total)
T37A8 008:599 JLINK_ReadMem (0x40000400, 0x002C Bytes, ...) -- CPU_ReadMem(44 bytes @ 0x40000400) - Data: 81 00 00 00 00 00 00 00 00 00 00 00 00 00 00 00 ...  returns 0x00 (0001ms, 2585ms total)
T37A8 008:600 JLINK_ReadMem (0x4000042C, 0x0004 Bytes, ...) -- CPU_ReadMem(4 bytes @ 0x4000042C) - Data: E7 03 00 00  returns 0x00 (0001ms, 2586ms total)
T37A8 008:601 JLINK_ReadMem (0x40000434, 0x000C Bytes, ...) -- CPU_ReadMem(12 bytes @ 0x40000434) - Data: 00 00 00 00 00 00 00 00 00 00 00 00  returns 0x00 (0001ms, 2587ms total)
T37A8 008:602 JLINK_ReadMem (0x40000440, 0x0004 Bytes, ...) -- CPU_ReadMem(4 bytes @ 0x40000440) - Data: 00 00 00 00  returns 0x00 (0001ms, 2588ms total)
T37A8 008:603 JLINK_ReadMem (0x40000448, 0x0004 Bytes, ...) -- CPU_ReadMem(4 bytes @ 0x40000448) - Data: 00 00 00 00  returns 0x00 (0000ms, 2588ms total)
T37A8 008:603 JLINK_ReadMem (0x4000044C, 0x0004 Bytes, ...) -- CPU_ReadMem(4 bytes @ 0x4000044C) - Data: 81 00 00 00  returns 0x00 (0001ms, 2589ms total)
T37A8 008:604 JLINK_ReadMem (0x40000424, 0x0004 Bytes, ...) -- CPU_ReadMem(4 bytes @ 0x40000424) - Data: 5F 02 00 00  returns 0x00 (0001ms, 2590ms total)
T37A8 008:605 JLINK_ReadMem (0x40000424, 0x0004 Bytes, ...) -- CPU_ReadMem(4 bytes @ 0x40000424) - Data: 11 02 00 00  returns 0x00 (0000ms, 2590ms total)
T1328 008:611 JLINK_IsHalted()  returns FALSE (0001ms, 2591ms total)
T1328 008:713 JLINK_IsHalted()  returns FALSE (0000ms, 2590ms total)
T1328 008:814 JLINK_IsHalted()  returns FALSE (0000ms, 2590ms total)
T1328 008:914 JLINK_IsHalted()  returns FALSE (0000ms, 2590ms total)
T1328 009:015 JLINK_IsHalted()  returns FALSE (0000ms, 2590ms total)
T1328 009:117 JLINK_ReadMemU32(0xE0001004, 0x0001 Items, ...) - Data: 50 FE 4E 01  returns 1 (0000ms, 2590ms total)
T37A8 009:117 JLINK_ReadMem (0x20000030, 0x0004 Bytes, ...) -- CPU_ReadMem(4 bytes @ 0x20000030) - Data: 00 00 00 00  returns 0x00 (0000ms, 2590ms total)
T37A8 009:117 JLINK_ReadMem (0x2000005C, 0x0004 Bytes, ...) -- CPU_ReadMem(4 bytes @ 0x2000005C) - Data: 00 00 00 00  returns 0x00 (0001ms, 2591ms total)
T37A8 009:119 JLINK_ReadMem (0x20000034, 0x0004 Bytes, ...) -- CPU_ReadMem(4 bytes @ 0x20000034) - Data: 00 00 00 00  returns 0x00 (0000ms, 2591ms total)
T37A8 009:119 JLINK_ReadMem (0x40000400, 0x002C Bytes, ...) -- CPU_ReadMem(44 bytes @ 0x40000400) - Data: 81 00 00 00 00 00 00 00 00 00 00 00 00 00 00 00 ...  returns 0x00 (0001ms, 2592ms total)
T37A8 009:120 JLINK_ReadMem (0x4000042C, 0x0004 Bytes, ...) -- CPU_ReadMem(4 bytes @ 0x4000042C) - Data: E7 03 00 00  returns 0x00 (0001ms, 2593ms total)
T37A8 009:121 JLINK_ReadMem (0x40000434, 0x000C Bytes, ...) -- CPU_ReadMem(12 bytes @ 0x40000434) - Data: 00 00 00 00 00 00 00 00 00 00 00 00  returns 0x00 (0001ms, 2594ms total)
T37A8 009:122 JLINK_ReadMem (0x40000440, 0x0004 Bytes, ...) -- CPU_ReadMem(4 bytes @ 0x40000440) - Data: 00 00 00 00  returns 0x00 (0000ms, 2594ms total)
T37A8 009:122 JLINK_ReadMem (0x40000448, 0x0004 Bytes, ...) -- CPU_ReadMem(4 bytes @ 0x40000448) - Data: 00 00 00 00  returns 0x00 (0001ms, 2595ms total)
T37A8 009:123 JLINK_ReadMem (0x4000044C, 0x0004 Bytes, ...) -- CPU_ReadMem(4 bytes @ 0x4000044C) - Data: 81 00 00 00  returns 0x00 (0000ms, 2595ms total)
T37A8 009:124 JLINK_ReadMem (0x40000424, 0x0004 Bytes, ...) -- CPU_ReadMem(4 bytes @ 0x40000424) - Data: A1 00 00 00  returns 0x00 (0000ms, 2595ms total)
T37A8 009:125 JLINK_ReadMem (0x40000424, 0x0004 Bytes, ...) -- CPU_ReadMem(4 bytes @ 0x40000424) - Data: B3 03 00 00  returns 0x00 (0000ms, 2595ms total)
T1328 009:130 JLINK_IsHalted()  returns FALSE (0001ms, 2596ms total)
T1328 009:232 JLINK_IsHalted()  returns FALSE (0000ms, 2595ms total)
T1328 009:334 JLINK_IsHalted()  returns FALSE (0000ms, 2595ms total)
T1328 009:435 JLINK_IsHalted()  returns FALSE (0001ms, 2596ms total)
T1328 009:537 JLINK_IsHalted()  returns FALSE (0001ms, 2596ms total)
T1328 009:639 JLINK_ReadMemU32(0xE0001004, 0x0001 Items, ...) - Data: 50 FE 4E 01  returns 1 (0000ms, 2595ms total)
T37A8 009:639 JLINK_ReadMem (0x20000030, 0x0004 Bytes, ...) -- CPU_ReadMem(4 bytes @ 0x20000030) - Data: 00 00 00 00  returns 0x00 (0001ms, 2596ms total)
T37A8 009:640 JLINK_ReadMem (0x2000005C, 0x0004 Bytes, ...) -- CPU_ReadMem(4 bytes @ 0x2000005C) - Data: 00 00 00 00  returns 0x00 (0000ms, 2596ms total)
T37A8 009:641 JLINK_ReadMem (0x20000034, 0x0004 Bytes, ...) -- CPU_ReadMem(4 bytes @ 0x20000034) - Data: 00 00 00 00  returns 0x00 (0001ms, 2597ms total)
T37A8 009:642 JLINK_ReadMem (0x40000400, 0x002C Bytes, ...) -- CPU_ReadMem(44 bytes @ 0x40000400) - Data: 81 00 00 00 00 00 00 00 00 00 00 00 00 00 00 00 ...  returns 0x00 (0001ms, 2598ms total)
T37A8 009:643 JLINK_ReadMem (0x4000042C, 0x0004 Bytes, ...) -- CPU_ReadMem(4 bytes @ 0x4000042C) - Data: E7 03 00 00  returns 0x00 (0001ms, 2599ms total)
T37A8 009:644 JLINK_ReadMem (0x40000434, 0x000C Bytes, ...) -- CPU_ReadMem(12 bytes @ 0x40000434) - Data: 00 00 00 00 00 00 00 00 00 00 00 00  returns 0x00 (0000ms, 2599ms total)
T37A8 009:644 JLINK_ReadMem (0x40000440, 0x0004 Bytes, ...) -- CPU_ReadMem(4 bytes @ 0x40000440) - Data: 00 00 00 00  returns 0x00 (0001ms, 2600ms total)
T37A8 009:645 JLINK_ReadMem (0x40000448, 0x0004 Bytes, ...) -- CPU_ReadMem(4 bytes @ 0x40000448) - Data: 00 00 00 00  returns 0x00 (0001ms, 2601ms total)
T37A8 009:646 JLINK_ReadMem (0x4000044C, 0x0004 Bytes, ...) -- CPU_ReadMem(4 bytes @ 0x4000044C) - Data: 81 00 00 00  returns 0x00 (0001ms, 2602ms total)
T37A8 009:647 JLINK_ReadMem (0x40000424, 0x0004 Bytes, ...) -- CPU_ReadMem(4 bytes @ 0x40000424) - Data: 49 01 00 00  returns 0x00 (0000ms, 2602ms total)
T37A8 009:648 JLINK_ReadMem (0x40000424, 0x0004 Bytes, ...) -- CPU_ReadMem(4 bytes @ 0x40000424) - Data: 5D 02 00 00  returns 0x00 (0000ms, 2602ms total)
T1328 009:654 JLINK_IsHalted()  returns FALSE (0001ms, 2603ms total)
T1328 009:756 JLINK_IsHalted()  returns FALSE (0000ms, 2602ms total)
T1328 009:857 JLINK_IsHalted()  returns FALSE (0000ms, 2602ms total)
T1328 009:959 JLINK_IsHalted()  returns FALSE (0000ms, 2602ms total)
T1328 010:060 JLINK_IsHalted()  returns FALSE (0000ms, 2602ms total)
T1328 010:161 JLINK_ReadMemU32(0xE0001004, 0x0001 Items, ...) - Data: 50 FE 4E 01  returns 1 (0000ms, 2602ms total)
T37A8 010:161 JLINK_ReadMem (0x20000030, 0x0004 Bytes, ...) -- CPU_ReadMem(4 bytes @ 0x20000030) - Data: 00 00 00 00  returns 0x00 (0001ms, 2603ms total)
T37A8 010:162 JLINK_ReadMem (0x2000005C, 0x0004 Bytes, ...) -- CPU_ReadMem(4 bytes @ 0x2000005C) - Data: 00 00 00 00  returns 0x00 (0001ms, 2604ms total)
T37A8 010:163 JLINK_ReadMem (0x20000034, 0x0004 Bytes, ...) -- CPU_ReadMem(4 bytes @ 0x20000034) - Data: 00 00 00 00  returns 0x00 (0001ms, 2605ms total)
T37A8 010:164 JLINK_ReadMem (0x40000400, 0x002C Bytes, ...) -- CPU_ReadMem(44 bytes @ 0x40000400) - Data: 81 00 00 00 00 00 00 00 00 00 00 00 00 00 00 00 ...  returns 0x00 (0001ms, 2606ms total)
T37A8 010:165 JLINK_ReadMem (0x4000042C, 0x0004 Bytes, ...) -- CPU_ReadMem(4 bytes @ 0x4000042C) - Data: E7 03 00 00  returns 0x00 (0001ms, 2607ms total)
T37A8 010:166 JLINK_ReadMem (0x40000434, 0x000C Bytes, ...) -- CPU_ReadMem(12 bytes @ 0x40000434) - Data: 00 00 00 00 00 00 00 00 00 00 00 00  returns 0x00 (0001ms, 2608ms total)
T37A8 010:167 JLINK_ReadMem (0x40000440, 0x0004 Bytes, ...) -- CPU_ReadMem(4 bytes @ 0x40000440) - Data: 00 00 00 00  returns 0x00 (0000ms, 2608ms total)
T37A8 010:167 JLINK_ReadMem (0x40000448, 0x0004 Bytes, ...) -- CPU_ReadMem(4 bytes @ 0x40000448) - Data: 00 00 00 00  returns 0x00 (0001ms, 2609ms total)
T37A8 010:168 JLINK_ReadMem (0x4000044C, 0x0004 Bytes, ...) -- CPU_ReadMem(4 bytes @ 0x4000044C) - Data: 81 00 00 00  returns 0x00 (0001ms, 2610ms total)
T37A8 010:169 JLINK_ReadMem (0x40000424, 0x0004 Bytes, ...) -- CPU_ReadMem(4 bytes @ 0x40000424) - Data: 0B 02 00 00  returns 0x00 (0000ms, 2610ms total)
T37A8 010:169 JLINK_ReadMem (0x40000424, 0x0004 Bytes, ...) -- CPU_ReadMem(4 bytes @ 0x40000424) - Data: C7 03 00 00  returns 0x00 (0001ms, 2611ms total)
T1328 010:176 JLINK_IsHalted()  returns FALSE (0001ms, 2612ms total)
T1328 010:278 JLINK_IsHalted()  returns FALSE (0000ms, 2611ms total)
T1328 010:379 JLINK_IsHalted()  returns FALSE (0000ms, 2611ms total)
T1328 010:481 JLINK_IsHalted()  returns FALSE (0000ms, 2611ms total)
T1328 010:581 JLINK_IsHalted()  returns FALSE (0000ms, 2611ms total)
T1328 010:682 JLINK_ReadMemU32(0xE0001004, 0x0001 Items, ...) - Data: 50 FE 4E 01  returns 1 (0000ms, 2611ms total)
T37A8 010:682 JLINK_ReadMem (0x20000030, 0x0004 Bytes, ...) -- CPU_ReadMem(4 bytes @ 0x20000030) - Data: 00 00 00 00  returns 0x00 (0001ms, 2612ms total)
T37A8 010:683 JLINK_ReadMem (0x2000005C, 0x0004 Bytes, ...) -- CPU_ReadMem(4 bytes @ 0x2000005C) - Data: 00 00 00 00  returns 0x00 (0001ms, 2613ms total)
T37A8 010:685 JLINK_ReadMem (0x20000034, 0x0004 Bytes, ...) -- CPU_ReadMem(4 bytes @ 0x20000034) - Data: 00 00 00 00  returns 0x00 (0002ms, 2615ms total)
T37A8 010:687 JLINK_ReadMem (0x40000400, 0x002C Bytes, ...) -- CPU_ReadMem(44 bytes @ 0x40000400) - Data: 81 00 00 00 00 00 00 00 00 00 00 00 00 00 00 00 ...  returns 0x00 (0001ms, 2616ms total)
T37A8 010:688 JLINK_ReadMem (0x4000042C, 0x0004 Bytes, ...) -- CPU_ReadMem(4 bytes @ 0x4000042C) - Data: E7 03 00 00  returns 0x00 (0001ms, 2617ms total)
T37A8 010:689 JLINK_ReadMem (0x40000434, 0x000C Bytes, ...) -- CPU_ReadMem(12 bytes @ 0x40000434) - Data: 00 00 00 00 00 00 00 00 00 00 00 00  returns 0x00 (0001ms, 2618ms total)
T37A8 010:690 JLINK_ReadMem (0x40000440, 0x0004 Bytes, ...) -- CPU_ReadMem(4 bytes @ 0x40000440) - Data: 00 00 00 00  returns 0x00 (0001ms, 2619ms total)
T37A8 010:691 JLINK_ReadMem (0x40000448, 0x0004 Bytes, ...) -- CPU_ReadMem(4 bytes @ 0x40000448) - Data: 00 00 00 00  returns 0x00 (0001ms, 2620ms total)
T37A8 010:692 JLINK_ReadMem (0x4000044C, 0x0004 Bytes, ...) -- CPU_ReadMem(4 bytes @ 0x4000044C) - Data: 81 00 00 00  returns 0x00 (0001ms, 2621ms total)
T37A8 010:693 JLINK_ReadMem (0x40000424, 0x0004 Bytes, ...) -- CPU_ReadMem(4 bytes @ 0x40000424) - Data: 61 01 00 00  returns 0x00 (0001ms, 2622ms total)
T37A8 010:694 JLINK_ReadMem (0x40000424, 0x0004 Bytes, ...) -- CPU_ReadMem(4 bytes @ 0x40000424) - Data: 31 02 00 00  returns 0x00 (0001ms, 2623ms total)
T1328 010:712 JLINK_IsHalted()  returns FALSE (0000ms, 2623ms total)
T1328 010:813 JLINK_IsHalted()  returns FALSE (0001ms, 2624ms total)
T1328 010:915 JLINK_IsHalted()  returns FALSE (0001ms, 2624ms total)
T1328 011:017 JLINK_IsHalted()  returns FALSE (0001ms, 2624ms total)
T1328 011:119 JLINK_IsHalted()  returns FALSE (0000ms, 2623ms total)
T1328 011:221 JLINK_ReadMemU32(0xE0001004, 0x0001 Items, ...) - Data: 50 FE 4E 01  returns 1 (0000ms, 2623ms total)
T37A8 011:221 JLINK_ReadMem (0x20000030, 0x0004 Bytes, ...) -- CPU_ReadMem(4 bytes @ 0x20000030) - Data: 00 00 00 00  returns 0x00 (0001ms, 2624ms total)
T37A8 011:222 JLINK_ReadMem (0x2000005C, 0x0004 Bytes, ...) -- CPU_ReadMem(4 bytes @ 0x2000005C) - Data: 00 00 00 00  returns 0x00 (0001ms, 2625ms total)
T37A8 011:224 JLINK_ReadMem (0x20000034, 0x0004 Bytes, ...) -- CPU_ReadMem(4 bytes @ 0x20000034) - Data: 00 00 00 00  returns 0x00 (0001ms, 2626ms total)
T37A8 011:225 JLINK_ReadMem (0x40000400, 0x002C Bytes, ...) -- CPU_ReadMem(44 bytes @ 0x40000400) - Data: 81 00 00 00 00 00 00 00 00 00 00 00 00 00 00 00 ...  returns 0x00 (0001ms, 2627ms total)
T37A8 011:226 JLINK_ReadMem (0x4000042C, 0x0004 Bytes, ...) -- CPU_ReadMem(4 bytes @ 0x4000042C) - Data: E7 03 00 00  returns 0x00 (0001ms, 2628ms total)
T37A8 011:227 JLINK_ReadMem (0x40000434, 0x000C Bytes, ...) -- CPU_ReadMem(12 bytes @ 0x40000434) - Data: 00 00 00 00 00 00 00 00 00 00 00 00  returns 0x00 (0001ms, 2629ms total)
T37A8 011:228 JLINK_ReadMem (0x40000440, 0x0004 Bytes, ...) -- CPU_ReadMem(4 bytes @ 0x40000440) - Data: 00 00 00 00  returns 0x00 (0000ms, 2629ms total)
T37A8 011:228 JLINK_ReadMem (0x40000448, 0x0004 Bytes, ...) -- CPU_ReadMem(4 bytes @ 0x40000448) - Data: 00 00 00 00  returns 0x00 (0001ms, 2630ms total)
T37A8 011:229 JLINK_ReadMem (0x4000044C, 0x0004 Bytes, ...) -- CPU_ReadMem(4 bytes @ 0x4000044C) - Data: 81 00 00 00  returns 0x00 (0001ms, 2631ms total)
T37A8 011:230 JLINK_ReadMem (0x40000424, 0x0004 Bytes, ...) -- CPU_ReadMem(4 bytes @ 0x40000424) - Data: 93 03 00 00  returns 0x00 (0001ms, 2632ms total)
T37A8 011:231 JLINK_ReadMem (0x40000424, 0x0004 Bytes, ...) -- CPU_ReadMem(4 bytes @ 0x40000424) - Data: 43 00 00 00  returns 0x00 (0001ms, 2633ms total)
T1328 011:244 JLINK_IsHalted()  returns FALSE (0001ms, 2634ms total)
T1328 011:346 JLINK_IsHalted()  returns FALSE (0000ms, 2633ms total)
T1328 011:447 JLINK_IsHalted()  returns FALSE (0000ms, 2633ms total)
T1328 011:549 JLINK_IsHalted()  returns FALSE (0000ms, 2633ms total)
T1328 011:650 JLINK_IsHalted()  returns FALSE (0000ms, 2633ms total)
T1328 011:751 JLINK_ReadMemU32(0xE0001004, 0x0001 Items, ...) - Data: 50 FE 4E 01  returns 1 (0000ms, 2633ms total)
T37A8 011:751 JLINK_ReadMem (0x20000030, 0x0004 Bytes, ...) -- CPU_ReadMem(4 bytes @ 0x20000030) - Data: 00 00 00 00  returns 0x00 (0001ms, 2634ms total)
T37A8 011:752 JLINK_ReadMem (0x2000005C, 0x0004 Bytes, ...) -- CPU_ReadMem(4 bytes @ 0x2000005C) - Data: 00 00 00 00  returns 0x00 (0001ms, 2635ms total)
T37A8 011:754 JLINK_ReadMem (0x20000034, 0x0004 Bytes, ...) -- CPU_ReadMem(4 bytes @ 0x20000034) - Data: 00 00 00 00  returns 0x00 (0001ms, 2636ms total)
T37A8 011:755 JLINK_ReadMem (0x40000400, 0x002C Bytes, ...) -- CPU_ReadMem(44 bytes @ 0x40000400) - Data: 81 00 00 00 00 00 00 00 00 00 00 00 00 00 00 00 ...  returns 0x00 (0001ms, 2637ms total)
T37A8 011:756 JLINK_ReadMem (0x4000042C, 0x0004 Bytes, ...) -- CPU_ReadMem(4 bytes @ 0x4000042C) - Data: E7 03 00 00  returns 0x00 (0000ms, 2637ms total)
T37A8 011:756 JLINK_ReadMem (0x40000434, 0x000C Bytes, ...) -- CPU_ReadMem(12 bytes @ 0x40000434) - Data: 00 00 00 00 00 00 00 00 00 00 00 00  returns 0x00 (0001ms, 2638ms total)
T37A8 011:757 JLINK_ReadMem (0x40000440, 0x0004 Bytes, ...) -- CPU_ReadMem(4 bytes @ 0x40000440) - Data: 00 00 00 00  returns 0x00 (0001ms, 2639ms total)
T37A8 011:758 JLINK_ReadMem (0x40000448, 0x0004 Bytes, ...) -- CPU_ReadMem(4 bytes @ 0x40000448) - Data: 00 00 00 00  returns 0x00 (0001ms, 2640ms total)
T37A8 011:759 JLINK_ReadMem (0x4000044C, 0x0004 Bytes, ...) -- CPU_ReadMem(4 bytes @ 0x4000044C) - Data: 81 00 00 00  returns 0x00 (0000ms, 2640ms total)
T37A8 011:759 JLINK_ReadMem (0x40000424, 0x0004 Bytes, ...) -- CPU_ReadMem(4 bytes @ 0x40000424) - Data: A5 00 00 00  returns 0x00 (0001ms, 2641ms total)
T37A8 011:760 JLINK_ReadMem (0x40000424, 0x0004 Bytes, ...) -- CPU_ReadMem(4 bytes @ 0x40000424) - Data: 3D 00 00 00  returns 0x00 (0001ms, 2642ms total)
T1328 011:767 JLINK_IsHalted()  returns FALSE (0001ms, 2643ms total)
T1328 011:869 JLINK_IsHalted()  returns FALSE (0000ms, 2642ms total)
T1328 011:971 JLINK_IsHalted()  returns FALSE (0000ms, 2642ms total)
T1328 012:072 JLINK_IsHalted()  returns FALSE (0000ms, 2642ms total)
T1328 012:173 JLINK_IsHalted()  returns FALSE (0000ms, 2642ms total)
T1328 012:274 JLINK_ReadMemU32(0xE0001004, 0x0001 Items, ...) - Data: 50 FE 4E 01  returns 1 (0000ms, 2642ms total)
